Circuit: * C:\Users\siyxu\Documents\vamk\EmbeddedSystemProject\Schematics\MosfetPowerControl\MosfetPowerControl.asc

Direct Newton iteration for .op point succeeded.
Semiconductor Device Operating Points:
                        --- VDMOSFET Transistors ---
Name:          m1          m3          m4          m2
Model:      fds6890a    fds6890a    fds6890a    fds6890a
Id:          5.11e-10    5.11e-10    2.01e-10    2.01e-10
Vgs:        -2.72e-02   -2.72e-02   -2.72e-02   -2.72e-02
Vds:        -2.72e-02   -2.72e-02    2.00e+01    2.00e+01
Vth:         2.00e+00    2.00e+00    2.00e+00    2.00e+00
Gm:          3.06e-17    3.06e-17    1.77e-17    1.77e-17
Gds:         0.00e+00    0.00e+00    0.00e+00    0.00e+00
Cgs:         1.50e-09    1.50e-09    1.50e-09    1.50e-09
Cgd:         5.97e-10    5.97e-10    1.35e-10    1.35e-10
Cbody:       4.66e-10    4.66e-10    1.00e-10    1.00e-10



Date: Wed Oct  4 13:07:21 2023
Total elapsed time: 2.868 seconds.

tnom = 27
temp = 27
method = trap
totiter = 7
traniter = 0
tranpoints = 0
accept = 0
rejected = 0
matrix size = 29
fillins = 40
solver = Normal
Avg thread counts: 12.0/0.0/12.0/12.0
Matrix Compiler1: 3.91 KB object code size
Matrix Compiler2: 2.99 KB object code size
