Circuit: * C:\Users\siyxu\Documents\vamk\EmbeddedSystemProject\STM32-Battery-Management\docs\KiCAD Files\MosfetPowerControl\TestSim.asc

Direct Newton iteration for .op point succeeded.
Semiconductor Device Operating Points:
                        --- VDMOSFET Transistors ---
Name:      m:mos_sw:1  m:mos_sw:3  m:mos_sw:4  m:mos_sw:2
Model:      fds6890a    fds6890a    fds6890a    fds6890a
Id:          2.84e+00    2.84e+00   -2.84e+00   -2.84e+00
Vgs:         9.06e+00    9.06e+00    5.67e+00    5.67e+00
Vds:         4.33e-02    4.33e-02   -4.84e-02   -4.84e-02
Vth:         2.00e+00    2.00e+00    2.00e+00    2.00e+00
Gm:          4.03e-01    4.03e-01    7.68e-01    7.68e-01
Gds:         5.07e+02    5.07e+02    2.65e+02    2.65e+02
Cgs:         1.50e-09    1.50e-09    1.50e-09    1.50e-09
Cgd:         9.00e-10    9.00e-10    9.00e-10    9.00e-10
Cbody:       4.50e-10    4.50e-10    4.72e-10    4.72e-10



Date: Mon Oct  9 12:53:05 2023
Total elapsed time: 0.697 seconds.

tnom = 27
temp = 27
method = trap
totiter = 24
traniter = 0
tranpoints = 0
accept = 0
rejected = 0
matrix size = 29
fillins = 40
solver = Normal
Avg thread counts: 12.0/0.0/12.0/12.0
Matrix Compiler1: 3.93 KB object code size
Matrix Compiler2: 3.03 KB object code size
