Circuit: * C:\Users\siyxu\Documents\vamk\EmbeddedSystemProject\Schematics\MosfetPowerControl\MosfetPowerControl.asc

WARNING: Node NC_02 is floating.
WARNING: Node NC_04 is floating.
WARNING: Node NC_06 is floating.
WARNING: Node NC_08 is floating.

WARNING: Less than two connections to node nc_01.  This node is used by d1.
WARNING: Less than two connections to node nc_02.  This node is used by d1.
WARNING: Less than two connections to node nc_03.  This node is used by d2.
WARNING: Less than two connections to node nc_04.  This node is used by d2.
WARNING: Less than two connections to node nc_05.  This node is used by d3.
WARNING: Less than two connections to node nc_06.  This node is used by d3.
WARNING: Less than two connections to node nc_07.  This node is used by d4.
WARNING: Less than two connections to node nc_08.  This node is used by d4.
Direct Newton iteration for .op point succeeded.
Semiconductor Device Operating Points:
                        --- Diodes ---
Name:      d1          d2          d3          d4
Model:      d           d           d           d
Id:      1.72e-28    1.72e-28    1.72e-28    1.72e-28
Vd:      1.24e-16    1.24e-16    1.24e-16    1.24e-16
Req:     7.21e+11    7.21e+11    7.21e+11    7.21e+11
CAP:     0.00e+00    0.00e+00    0.00e+00    0.00e+00

                        --- VDMOSFET Transistors ---
Name:          m1          m3          m4          m2
Model:      fds6890a    fds6890a    fds6890a    fds6890a
Id:          3.23e+00    3.23e+00   -3.23e+00   -3.23e+00
Vgs:         2.31e+00    2.31e+00    0.00e+00    0.00e+00
Vds:         1.64e+00    1.64e+00   -6.77e-01   -6.77e-01
Vth:         2.00e+00    2.00e+00    2.00e+00    2.00e+00
Gm:          2.05e+01    2.05e+01    2.31e-11    2.31e-11
Gds:         0.00e+00    0.00e+00    0.00e+00    0.00e+00
Cgs:         1.50e-09    1.50e-09    1.50e-09    1.50e-09
Cgd:         7.80e-10    7.80e-10    7.75e-10    7.75e-10
Cbody:       2.83e-10    2.83e-10    7.45e-10    7.45e-10



Date: Thu Oct  5 11:49:08 2023
Total elapsed time: 0.222 seconds.

tnom = 27
temp = 27
method = trap
totiter = 32
traniter = 0
tranpoints = 0
accept = 0
rejected = 0
matrix size = 37
fillins = 36
solver = Normal
Avg thread counts: 12.0/0.0/12.0/12.0
Matrix Compiler1: 3.77 KB object code size
Matrix Compiler2: 3.30 KB object code size
